
**** 03/03/03 10:52:00 ************** PSpice Lite (Mar 2000) *****************

 ** Profile: "SCHEMATIC1-Bias"  [ C:\DOCUMENTS AND SETTINGS\JAVIER\MY DOCUMENTS\EE10\PSpice 1\project 3-SCHEMATIC1-Bias.sim ] 


 ****     CIRCUIT DESCRIPTION


******************************************************************************




** Creating circuit file "project 3-SCHEMATIC1-Bias.sim.cir" 
** WARNING: THIS AUTOMATICALLY GENERATED FILE MAY BE OVERWRITTEN BY SUBSEQUENT SIMULATIONS

*Libraries: 
* Local Libraries :
* From [PSPICE NETLIST] section of C:\Program Files\OrcadLite\PSpice\PSpice.ini file:
.lib "nom.lib" 

*Analysis directives: 
.PROBE V(*) I(*) W(*) D(*) NOISE(*) 
.INC ".\project 3-SCHEMATIC1.net" 



**** INCLUDING "project 3-SCHEMATIC1.net" ****
* source PROJECT 3
V_V3         N00265 0 1Vdc
R_R1         N00265 N00326  8k  
R_R2         N00326 N00603  320k  
R_Rout         N001261 N00603  2k  
R_Rin         N00326 0  400k  
E_U1         N001261 0 VALUE {LIMIT(V(0,N00326)*5E5,-15V,+15V)}

**** RESUMING "project 3-SCHEMATIC1-Bias.sim.cir" ****
.END

**** 03/03/03 10:52:00 ************** PSpice Lite (Mar 2000) *****************

 ** Profile: "SCHEMATIC1-Bias"  [ C:\DOCUMENTS AND SETTINGS\JAVIER\MY DOCUMENTS\EE10\PSpice 1\project 3-SCHEMATIC1-Bias.sim ] 


 ****     SMALL SIGNAL BIAS SOLUTION       TEMPERATURE =   27.000 DEG C


******************************************************************************



 NODE   VOLTAGE     NODE   VOLTAGE     NODE   VOLTAGE     NODE   VOLTAGE


(N00265)    1.0000 (N00326)     .6004 (N00603)  -14.9030 (N001261)  -15.0000    




    VOLTAGE SOURCE CURRENTS
    NAME         CURRENT

    V_V3        -4.995E-05

    TOTAL POWER DISSIPATION   5.00E-05  WATTS



          JOB CONCLUDED

          TOTAL JOB TIME             .05
