
**** 02/19/03 11:15:15 ************** PSpice Lite (Mar 2000) *****************

 ** Profile: "SCHEMATIC1-Bias"  [ C:\DOCUMENTS AND SETTINGS\JAVIER\MY DOCUMENTS\EE10\PSpice 1\pspice 1-schematic1-bias.sim ] 


 ****     CIRCUIT DESCRIPTION


******************************************************************************




** Creating circuit file "pspice 1-schematic1-bias.sim.cir" 
** WARNING: THIS AUTOMATICALLY GENERATED FILE MAY BE OVERWRITTEN BY SUBSEQUENT SIMULATIONS

*Libraries: 
* Local Libraries :
* From [PSPICE NETLIST] section of C:\Program Files\OrcadLite\PSpice\PSpice.ini file:
.lib "nom.lib" 

*Analysis directives: 
.PROBE V(*) I(*) W(*) D(*) NOISE(*) 
.INC ".\pspice 1-SCHEMATIC1.net" 



**** INCLUDING "pspice 1-SCHEMATIC1.net" ****
* source PSPICE 1
R_R1         N00617 0  5  
R_R4         N00772 N01078  3  
R_R2         N00617 N00772  4  
R_R5         N00617 N01078  1  
R_R3         N00617 N01078  2  
I_I3         N00772 N01078 DC 1Adc  
I_I2         0 N01078 DC 0.1Adc  
I_I1         0 N00772 DC 10Adc  

**** RESUMING "pspice 1-schematic1-bias.sim.cir" ****
.END

**** 02/19/03 11:15:15 ************** PSpice Lite (Mar 2000) *****************

 ** Profile: "SCHEMATIC1-Bias"  [ C:\DOCUMENTS AND SETTINGS\JAVIER\MY DOCUMENTS\EE10\PSpice 1\pspice 1-schematic1-bias.sim ] 


 ****     SMALL SIGNAL BIAS SOLUTION       TEMPERATURE =   27.000 DEG C


******************************************************************************



 NODE   VOLTAGE     NODE   VOLTAGE     NODE   VOLTAGE     NODE   VOLTAGE


(N00617)   50.5000 (N00772)   68.1000 (N01078)   54.3000 




    VOLTAGE SOURCE CURRENTS
    NAME         CURRENT


    TOTAL POWER DISSIPATION   0.00E+00  WATTS



          JOB CONCLUDED

          TOTAL JOB TIME             .11
