
**** 02/18/03 21:11:07 ************** PSpice Lite (Mar 2000) *****************

 ** Profile: "SCHEMATIC1-Bias"  [ C:\DOCUMENTS AND SETTINGS\JAVIER\MY DOCUMENTS\EE10\PSpice 1\tutorial 1-SCHEMATIC1-Bias.sim ] 


 ****     CIRCUIT DESCRIPTION


******************************************************************************




** Creating circuit file "tutorial 1-SCHEMATIC1-Bias.sim.cir" 
** WARNING: THIS AUTOMATICALLY GENERATED FILE MAY BE OVERWRITTEN BY SUBSEQUENT SIMULATIONS

*Libraries: 
* Local Libraries :
* From [PSPICE NETLIST] section of C:\Program Files\OrcadLite\PSpice\PSpice.ini file:
.lib "nom.lib" 

*Analysis directives: 
.PROBE V(*) I(*) W(*) D(*) NOISE(*) 
.INC ".\tutorial 1-SCHEMATIC1.net" 



**** INCLUDING "tutorial 1-SCHEMATIC1.net" ****
* source TUTORIAL 1
R_R4         N00772 N01078  3  
R_R1         N00617 0  5  
R_R2         N00617 N00772  4  
R_R5         N00617 N01078  1  
R_R3         N00617 N01078  2  
I_I3         N00772 N01078 DC 1Adc  
I_I2         0 N01078 DC 1Adc  
I_I1         0 N00772 DC 1Adc  

**** RESUMING "tutorial 1-SCHEMATIC1-Bias.sim.cir" ****
.END

**** 02/18/03 21:11:07 ************** PSpice Lite (Mar 2000) *****************

 ** Profile: "SCHEMATIC1-Bias"  [ C:\DOCUMENTS AND SETTINGS\JAVIER\MY DOCUMENTS\EE10\PSpice 1\tutorial 1-SCHEMATIC1-Bias.sim ] 


 ****     SMALL SIGNAL BIAS SOLUTION       TEMPERATURE =   27.000 DEG C


******************************************************************************



 NODE   VOLTAGE     NODE   VOLTAGE     NODE   VOLTAGE     NODE   VOLTAGE


(N00617)   10.0000 (N00772)   10.6960 (N01078)   11.2170 




    VOLTAGE SOURCE CURRENTS
    NAME         CURRENT


    TOTAL POWER DISSIPATION   0.00E+00  WATTS



          JOB CONCLUDED

          TOTAL JOB TIME             .04
